T48F0 000:004.961   SEGGER J-Link V7.50 Log File
T48F0 000:005.045   DLL Compiled: Jul  1 2021 17:37:28
T48F0 000:005.050   Logging started @ 2023-07-20 07:16
T48F0 000:005.055 - 5.058ms
T48F0 000:005.065 JLINK_SetWarnOutHandler(...)
T48F0 000:005.070 - 0.008ms
T48F0 000:005.076 JLINK_OpenEx(...)
T48F0 000:007.059   Firmware: J-Link V9 compiled May  7 2021 16:26:12
T48F0 000:007.805   Firmware: J-Link V9 compiled May  7 2021 16:26:12
T48F0 000:007.995   Decompressing FW timestamp took 164 us
T48F0 000:016.206   Hardware: V9.40
T48F0 000:016.228   S/N: 59409720
T48F0 000:016.235   OEM: SEGGER
T48F0 000:016.242   Feature(s): RDI, GDB, FlashDL, FlashBP, JFlash
T48F0 000:018.244   TELNET listener socket opened on port 19021
T48F0 000:018.430   WEBSRV Starting webserver
T48F0 000:018.525   WEBSRV Webserver running on local port 19080
T48F0 000:018.534 - 13.460ms returns "O.K."
T48F0 000:018.550 JLINK_GetEmuCaps()
T48F0 000:018.555 - 0.007ms returns 0xB9FF7BBF
T48F0 000:018.564 JLINK_TIF_GetAvailable(...)
T48F0 000:018.921 - 0.364ms
T48F0 000:018.934 JLINK_SetErrorOutHandler(...)
T48F0 000:018.953 - 0.021ms
T48F0 000:019.006 JLINK_ExecCommand("ProjectFile = "D:\m0m4_sdk\ls\sccc9xx_sdk_0.75.3\examples\sccc9xx\spi_i2s\spi_dma_master\MDK\uvision5\JLinkSettings.ini"", ...). 
T48F0 000:029.072   Ref file found at: C:\Keil_v5\ARM\Segger\JLinkDevices.ref
T48F0 000:029.156   XML referenced by ref file: d:\Program Files\SEGGER\JLink\JLinkDevices.xml
T48F0 000:029.224   XML file found at: C:\Keil_v5\ARM\Segger\JLinkDevices.xml
T48F0 000:029.231   Ignoring XML in DLL dir and using ref file instead.
T48F0 000:029.306   d:\Program Files\SEGGER\JLink\JLinkDevices.xml evaluated successfully.
T48F0 000:033.483   Device "ECXXXX" selected.
T48F0 000:034.007 - 15.006ms returns 0x00
T48F0 000:035.211 JLINK_ExecCommand("Device = sccc9xx", ...). 
T48F0 000:037.608   Device "ECXXXX" selected.
T48F0 000:038.157 - 2.940ms returns 0x00
T48F0 000:038.172 JLINK_GetHardwareVersion()
T48F0 000:038.177 - 0.007ms returns 94000
T48F0 000:038.183 JLINK_GetDLLVersion()
T48F0 000:038.192 - 0.011ms returns 75000
T48F0 000:038.198 JLINK_GetOEMString(...)
T48F0 000:038.205 JLINK_GetFirmwareString(...)
T48F0 000:038.209 - 0.007ms
T48F0 000:042.522 JLINK_GetDLLVersion()
T48F0 000:042.533 - 0.013ms returns 75000
T48F0 000:042.539 JLINK_GetCompileDateTime()
T48F0 000:042.543 - 0.007ms
T48F0 000:045.061 JLINK_GetFirmwareString(...)
T48F0 000:045.077 - 0.018ms
T48F0 000:046.148 JLINK_GetHardwareVersion()
T48F0 000:046.158 - 0.012ms returns 94000
T48F0 000:047.207 JLINK_GetSN()
T48F0 000:047.216 - 0.012ms returns 59409720
T48F0 000:048.265 JLINK_GetOEMString(...)
T48F0 000:050.391 JLINK_TIF_Select(JLINKARM_TIF_SWD)
T48F0 000:052.248 - 1.863ms returns 0x00
T48F0 000:052.259 JLINK_HasError()
T48F0 000:052.280 JLINK_SetSpeed(5000)
T48F0 000:052.659 - 0.385ms
T48F0 000:052.671 JLINK_GetId()
T48F0 000:055.428   Found SW-DP with ID 0x2BA01477
T48F0 000:061.354   DPIDR: 0x2BA01477
T48F0 000:062.441   Scanning AP map to find all available APs
T48F0 000:065.398   AP[1]: Stopped AP scan as end of AP map has been reached
T48F0 000:066.547   AP[0]: AHB-AP (IDR: 0x24770011)
T48F0 000:067.673   Iterating through AP map to find AHB-AP to use
T48F0 000:071.525   AP[0]: Core found
T48F0 000:072.687   AP[0]: AHB-AP ROM base: 0xE00FF000
T48F0 000:078.709   CPUID register: 0x410FC241. Implementer code: 0x41 (ARM)
T48F0 000:080.043   Found Cortex-M4 r0p1, Little endian.
T48F0 000:182.448   -- Max. mem block: 0x00010E60
T48F0 000:183.250   CPU_ReadMem(4 bytes @ 0xE000EDF0)
T48F0 000:183.885   CPU_WriteMem(4 bytes @ 0xE000EDF0)
T48F0 000:184.530   CPU_ReadMem(4 bytes @ 0xE0002000)
T48F0 000:186.485   FPUnit: 6 code (BP) slots and 2 literal slots
T48F0 000:186.499   CPU_ReadMem(4 bytes @ 0xE000EDFC)
T48F0 000:187.060   CPU_WriteMem(4 bytes @ 0xE000EDFC)
T48F0 000:187.629   CPU_ReadMem(4 bytes @ 0xE0001000)
T48F0 000:188.135   CPU_WriteMem(4 bytes @ 0xE0001000)
T48F0 000:188.850   CPU_ReadMem(4 bytes @ 0xE000ED88)
T48F0 000:189.591   CPU_WriteMem(4 bytes @ 0xE000ED88)
T48F0 000:190.350   CPU_ReadMem(4 bytes @ 0xE000ED88)
T48F0 000:191.051   CPU_WriteMem(4 bytes @ 0xE000ED88)
T48F0 000:192.970   CoreSight components:
T48F0 000:194.158   ROMTbl[0] @ E00FF000
T48F0 000:194.172   CPU_ReadMem(64 bytes @ 0xE00FF000)
T48F0 000:195.095   CPU_ReadMem(32 bytes @ 0xE000EFE0)
T48F0 000:197.223   ROMTbl[0][0]: E000E000, CID: B105E00D, PID: 000BB00C SCS-M7
T48F0 000:197.239   CPU_ReadMem(32 bytes @ 0xE0001FE0)
T48F0 000:201.265   ROMTbl[0][1]: E0001000, CID: B105E00D, PID: 003BB002 DWT
T48F0 000:201.305   CPU_ReadMem(32 bytes @ 0xE0002FE0)
T48F0 000:203.220   ROMTbl[0][2]: E0002000, CID: B105E00D, PID: 002BB003 FPB
T48F0 000:203.235   CPU_ReadMem(32 bytes @ 0xE0000FE0)
T48F0 000:205.071   ROMTbl[0][3]: E0000000, CID: B105E00D, PID: 003BB001 ITM
T48F0 000:205.085   CPU_ReadMem(32 bytes @ 0xE0040FE0)
T48F0 000:207.045   ROMTbl[0][4]: E0040000, CID: B105900D, PID: 000BB9A1 TPIU
T48F0 000:207.671 - 155.006ms returns 0x2BA01477
T48F0 000:207.686 JLINK_GetDLLVersion()
T48F0 000:207.692 - 0.007ms returns 75000
T48F0 000:207.698 JLINK_CORE_GetFound()
T48F0 000:207.703 - 0.007ms returns 0xE0000FF
T48F0 000:207.708 JLINK_GetDebugInfo(0x100 = JLINKARM_ROM_TABLE_ADDR_INDEX)
T48F0 000:207.714   Value=0xE00FF000
T48F0 000:207.721 - 0.014ms returns 0
T48F0 000:208.875 JLINK_GetDebugInfo(0x100 = JLINKARM_ROM_TABLE_ADDR_INDEX)
T48F0 000:208.886   Value=0xE00FF000
T48F0 000:208.893 - 0.019ms returns 0
T48F0 000:208.898 JLINK_GetDebugInfo(0x101 = JLINKARM_DEBUG_INFO_ETM_ADDR_INDEX)
T48F0 000:208.903   Value=0x00000000
T48F0 000:208.910 - 0.014ms returns 0
T48F0 000:208.923 JLINK_ReadMemEx(0xE0041FF0, 0x10 Bytes, Flags = 0x02000004)
T48F0 000:208.950   CPU_ReadMem(16 bytes @ 0xE0041FF0)
T48F0 000:209.686   Data:  00 00 00 00 00 00 00 00 00 00 00 00 00 00 00 00
T48F0 000:209.698 - 0.777ms returns 16 (0x10)
T48F0 000:209.705 JLINK_GetDebugInfo(0x102 = JLINKARM_DEBUG_INFO_MTB_ADDR_INDEX)
T48F0 000:209.711   Value=0x00000000
T48F0 000:209.718 - 0.014ms returns 0
T48F0 000:209.723 JLINK_GetDebugInfo(0x103 = JLINKARM_DEBUG_INFO_TPIU_ADDR_INDEX)
T48F0 000:209.728   Value=0xE0040000
T48F0 000:209.735 - 0.013ms returns 0
T48F0 000:209.740 JLINK_GetDebugInfo(0x104 = JLINKARM_DEBUG_INFO_ITM_ADDR_INDEX)
T48F0 000:209.745   Value=0xE0000000
T48F0 000:209.752 - 0.013ms returns 0
T48F0 000:209.757 JLINK_GetDebugInfo(0x105 = JLINKARM_DEBUG_INFO_DWT_ADDR_INDEX)
T48F0 000:209.762   Value=0xE0001000
T48F0 000:209.768 - 0.013ms returns 0
T48F0 000:209.774 JLINK_GetDebugInfo(0x106 = JLINKARM_DEBUG_INFO_FPB_ADDR_INDEX)
T48F0 000:209.779   Value=0xE0002000
T48F0 000:209.785 - 0.013ms returns 0
T48F0 000:209.791 JLINK_GetDebugInfo(0x107 = JLINKARM_DEBUG_INFO_NVIC_ADDR_INDEX)
T48F0 000:209.795   Value=0xE000E000
T48F0 000:209.802 - 0.013ms returns 0
T48F0 000:209.807 JLINK_GetDebugInfo(0x10C = JLINKARM_DEBUG_INFO_DBG_ADDR_INDEX)
T48F0 000:209.812   Value=0xE000EDF0
T48F0 000:209.819 - 0.013ms returns 0
T48F0 000:209.824 JLINK_GetDebugInfo(0x01 = Unknown)
T48F0 000:209.829   Value=0x00000001
T48F0 000:209.835 - 0.013ms returns 0
T48F0 000:209.841 JLINK_ReadMemU32(0xE000ED00, 0x1 Items)
T48F0 000:209.850   CPU_ReadMem(4 bytes @ 0xE000ED00)
T48F0 000:210.634   Data:  41 C2 0F 41
T48F0 000:210.646   Debug reg: CPUID
T48F0 000:210.653 - 0.814ms returns 1 (0x1)
T48F0 000:210.660 JLINK_GetDebugInfo(0x10F = JLINKARM_DEBUG_INFO_HAS_CORTEX_M_SECURITY_EXT_INDEX)
T48F0 000:210.665   Value=0x00000000
T48F0 000:210.672 - 0.014ms returns 0
T48F0 000:210.678 JLINK_HasError()
T48F0 000:210.684 JLINK_SetResetType(JLINKARM_CM3_RESET_TYPE_NORMAL)
T48F0 000:210.689 - 0.007ms returns JLINKARM_CM3_RESET_TYPE_NORMAL
T48F0 000:210.695 JLINK_Reset()
T48F0 000:210.716   CPU is running
T48F0 000:210.724   CPU_WriteMem(4 bytes @ 0xE000EDF0)
T48F0 000:211.353   CPU is running
T48F0 000:211.365   CPU_WriteMem(4 bytes @ 0xE000EDFC)
T48F0 000:213.281   Reset: Halt core after reset via DEMCR.VC_CORERESET.
T48F0 000:219.287   Reset: Reset device via AIRCR.SYSRESETREQ.
T48F0 000:219.314   CPU is running
T48F0 000:219.325   CPU_WriteMem(4 bytes @ 0xE000ED0C)
T48F0 000:272.309   CPU_ReadMem(4 bytes @ 0xE000EDF0)
T48F0 000:272.875   CPU_ReadMem(4 bytes @ 0xE000EDF0)
T48F0 000:273.426   CPU is running
T48F0 000:273.439   CPU_WriteMem(4 bytes @ 0xE000EDF0)
T48F0 000:273.997   CPU is running
T48F0 000:274.009   CPU_WriteMem(4 bytes @ 0xE000EDFC)
T48F0 000:279.626   CPU_ReadMem(4 bytes @ 0xE000EDF0)
T48F0 000:282.647   CPU_WriteMem(4 bytes @ 0xE0002000)
T48F0 000:283.239   CPU_ReadMem(4 bytes @ 0xE000EDFC)
T48F0 000:283.949   CPU_ReadMem(4 bytes @ 0xE0001000)
T48F0 000:284.647 - 73.959ms
T48F0 000:284.663 JLINK_Halt()
T48F0 000:284.669 - 0.008ms returns 0x00
T48F0 000:284.676 JLINK_ReadMemU32(0xE000EDF0, 0x1 Items)
T48F0 000:284.687   CPU_ReadMem(4 bytes @ 0xE000EDF0)
T48F0 000:285.433   Data:  03 00 03 00
T48F0 000:285.447   Debug reg: DHCSR
T48F0 000:285.455 - 0.781ms returns 1 (0x1)
T48F0 000:285.471 JLINK_WriteU32_64(0xE000EDF0, 0xA05F0003)
T48F0 000:285.477   Debug reg: DHCSR
T48F0 000:285.685   CPU_WriteMem(4 bytes @ 0xE000EDF0)
T48F0 000:286.434 - 0.970ms returns 0 (0x00000000)
T48F0 000:286.448 JLINK_WriteU32_64(0xE000EDFC, 0x01000000)
T48F0 000:286.454   Debug reg: DEMCR
T48F0 000:286.466   CPU_WriteMem(4 bytes @ 0xE000EDFC)
T48F0 000:287.123 - 0.682ms returns 0 (0x00000000)
T48F0 000:292.063 JLINK_GetHWStatus(...)
T48F0 000:292.631 - 0.575ms returns 0
T48F0 000:299.055 JLINK_GetNumBPUnits(Type = 0xFFFFFF00)
T48F0 000:299.080 - 0.027ms returns 0x06
T48F0 000:299.087 JLINK_GetNumBPUnits(Type = 0xF0)
T48F0 000:299.092 - 0.007ms returns 0x2000
T48F0 000:299.097 JLINK_GetNumWPUnits()
T48F0 000:299.102 - 0.007ms returns 4
T48F0 000:303.487 JLINK_GetSpeed()
T48F0 000:303.501 - 0.017ms returns 4000
T48F0 000:305.994 JLINK_ReadMemU32(0xE000E004, 0x1 Items)
T48F0 000:306.015   CPU_ReadMem(4 bytes @ 0xE000E004)
T48F0 000:306.540   Data:  01 00 00 00
T48F0 000:306.552 - 0.560ms returns 1 (0x1)
T48F0 000:306.559 JLINK_ReadMemU32(0xE000E004, 0x1 Items)
T48F0 000:306.568   CPU_ReadMem(4 bytes @ 0xE000E004)
T48F0 000:307.127   Data:  01 00 00 00
T48F0 000:307.139 - 0.582ms returns 1 (0x1)
T48F0 000:307.146 JLINK_WriteMemEx(0xE0001000, 0x0000001C Bytes, Flags = 0x02000004)
T48F0 000:307.152   Data:  01 00 00 00 00 00 00 00 00 00 00 00 00 00 00 00 ...
T48F0 000:307.165   CPU_WriteMem(28 bytes @ 0xE0001000)
T48F0 000:307.815 - 0.675ms returns 0x1C
T48F0 000:307.829 JLINK_Halt()
T48F0 000:307.835 - 0.007ms returns 0x00
T48F0 000:307.840 JLINK_IsHalted()
T48F0 000:307.846 - 0.007ms returns TRUE
T48F0 000:312.742 JLINK_WriteMem(0x20001000, 0x458 Bytes, ...)
T48F0 000:312.756   Data:  00 BE 0A E0 0D 78 2D 06 68 40 08 24 40 00 00 D3 ...
T48F0 000:313.011   CPU_WriteMem(1112 bytes @ 0x20001000)
T48F0 000:317.329 - 4.605ms returns 0x458
T48F0 000:317.486 JLINK_HasError()
T48F0 000:317.500 JLINK_WriteReg(R0, 0x00800000)
T48F0 000:317.510 - 0.012ms returns 0
T48F0 000:317.516 JLINK_WriteReg(R1, 0x00B71B00)
T48F0 000:317.522 - 0.008ms returns 0
T48F0 000:317.527 JLINK_WriteReg(R2, 0x00000001)
T48F0 000:317.532 - 0.007ms returns 0
T48F0 000:317.538 JLINK_WriteReg(R3, 0x00000000)
T48F0 000:317.543 - 0.007ms returns 0
T48F0 000:317.548 JLINK_WriteReg(R4, 0x00000000)
T48F0 000:317.553 - 0.007ms returns 0
T48F0 000:317.559 JLINK_WriteReg(R5, 0x00000000)
T48F0 000:317.564 - 0.007ms returns 0
T48F0 000:317.569 JLINK_WriteReg(R6, 0x00000000)
T48F0 000:317.574 - 0.007ms returns 0
T48F0 000:317.580 JLINK_WriteReg(R7, 0x00000000)
T48F0 000:317.585 - 0.007ms returns 0
T48F0 000:317.590 JLINK_WriteReg(R8, 0x00000000)
T48F0 000:317.610 - 0.022ms returns 0
T48F0 000:317.616 JLINK_WriteReg(R9, 0x200013F8)
T48F0 000:317.621 - 0.007ms returns 0
T48F0 000:317.626 JLINK_WriteReg(R10, 0x00000000)
T48F0 000:317.631 - 0.007ms returns 0
T48F0 000:317.637 JLINK_WriteReg(R11, 0x00000000)
T48F0 000:317.642 - 0.007ms returns 0
T48F0 000:317.647 JLINK_WriteReg(R12, 0x00000000)
T48F0 000:317.652 - 0.007ms returns 0
T48F0 000:317.658 JLINK_WriteReg(R13 (SP), 0x20002000)
T48F0 000:317.666 - 0.012ms returns 0
T48F0 000:317.673 JLINK_WriteReg(R14, 0x20001001)
T48F0 000:317.678 - 0.007ms returns 0
T48F0 000:317.684 JLINK_WriteReg(R15 (PC), 0x20001038)
T48F0 000:317.692 - 0.011ms returns 0
T48F0 000:317.698 JLINK_WriteReg(XPSR, 0x01000000)
T48F0 000:317.703 - 0.007ms returns 0
T48F0 000:317.709 JLINK_WriteReg(MSP, 0x20002000)
T48F0 000:317.714 - 0.007ms returns 0
T48F0 000:317.719 JLINK_WriteReg(PSP, 0x20002000)
T48F0 000:317.724 - 0.007ms returns 0
T48F0 000:317.730 JLINK_WriteReg(CFBP, 0x00000000)
T48F0 000:317.735 - 0.007ms returns 0
T48F0 000:317.740 JLINK_SetBPEx(Addr = 0x20001000, Type = 0xFFFFFFF2)
T48F0 000:317.751   CPU_ReadMem(2 bytes @ 0x20001000)
T48F0 000:318.710 - 0.987ms returns 0x00000001
T48F0 000:318.735 JLINK_Go()
T48F0 000:318.746   CPU_WriteMem(2 bytes @ 0x20001000)
T48F0 000:319.712   CPU_ReadMem(4 bytes @ 0xE0001000)
T48F0 000:320.685   CPU_WriteMem(4 bytes @ 0xE0002008)
T48F0 000:320.711   CPU_WriteMem(4 bytes @ 0xE000200C)
T48F0 000:320.718   CPU_WriteMem(4 bytes @ 0xE0002010)
T48F0 000:320.725   CPU_WriteMem(4 bytes @ 0xE0002014)
T48F0 000:320.733   CPU_WriteMem(4 bytes @ 0xE0002018)
T48F0 000:320.740   CPU_WriteMem(4 bytes @ 0xE000201C)
T48F0 000:322.476   CPU_WriteMem(4 bytes @ 0xE0001004)
T48F0 000:325.824 - 7.105ms
T48F0 000:325.847 JLINK_IsHalted()
T48F0 000:328.504   CPU_ReadMem(2 bytes @ 0x20001000)
T48F0 000:329.069 - 3.230ms returns TRUE
T48F0 000:329.083 JLINK_ReadReg(R15 (PC))
T48F0 000:329.091 - 0.010ms returns 0x20001000
T48F0 000:329.097 JLINK_ClrBPEx(BPHandle = 0x00000001)
T48F0 000:329.103 - 0.008ms returns 0x00
T48F0 000:329.109 JLINK_ReadReg(R0)
T48F0 000:329.114 - 0.007ms returns 0x00000000
T48F0 000:329.622 JLINK_HasError()
T48F0 000:329.633 JLINK_WriteReg(R0, 0x00800000)
T48F0 000:329.640 - 0.009ms returns 0
T48F0 000:329.646 JLINK_WriteReg(R1, 0x00001000)
T48F0 000:329.652 - 0.007ms returns 0
T48F0 000:329.657 JLINK_WriteReg(R2, 0x000000FF)
T48F0 000:329.662 - 0.007ms returns 0
T48F0 000:329.668 JLINK_WriteReg(R3, 0x00000000)
T48F0 000:329.673 - 0.007ms returns 0
T48F0 000:329.678 JLINK_WriteReg(R4, 0x00000000)
T48F0 000:329.683 - 0.007ms returns 0
T48F0 000:329.688 JLINK_WriteReg(R5, 0x00000000)
T48F0 000:329.693 - 0.007ms returns 0
T48F0 000:329.699 JLINK_WriteReg(R6, 0x00000000)
T48F0 000:329.704 - 0.007ms returns 0
T48F0 000:329.709 JLINK_WriteReg(R7, 0x00000000)
T48F0 000:329.714 - 0.007ms returns 0
T48F0 000:329.720 JLINK_WriteReg(R8, 0x00000000)
T48F0 000:329.725 - 0.007ms returns 0
T48F0 000:329.730 JLINK_WriteReg(R9, 0x200013F8)
T48F0 000:329.735 - 0.007ms returns 0
T48F0 000:329.740 JLINK_WriteReg(R10, 0x00000000)
T48F0 000:329.746 - 0.007ms returns 0
T48F0 000:329.751 JLINK_WriteReg(R11, 0x00000000)
T48F0 000:329.756 - 0.007ms returns 0
T48F0 000:329.761 JLINK_WriteReg(R12, 0x00000000)
T48F0 000:329.766 - 0.007ms returns 0
T48F0 000:329.772 JLINK_WriteReg(R13 (SP), 0x20002000)
T48F0 000:329.777 - 0.007ms returns 0
T48F0 000:329.783 JLINK_WriteReg(R14, 0x20001001)
T48F0 000:329.788 - 0.007ms returns 0
T48F0 000:329.793 JLINK_WriteReg(R15 (PC), 0x20001020)
T48F0 000:329.798 - 0.007ms returns 0
T48F0 000:329.804 JLINK_WriteReg(XPSR, 0x01000000)
T48F0 000:329.809 - 0.007ms returns 0
T48F0 000:329.814 JLINK_WriteReg(MSP, 0x20002000)
T48F0 000:329.819 - 0.007ms returns 0
T48F0 000:329.825 JLINK_WriteReg(PSP, 0x20002000)
T48F0 000:329.830 - 0.007ms returns 0
T48F0 000:329.835 JLINK_WriteReg(CFBP, 0x00000000)
T48F0 000:329.840 - 0.007ms returns 0
T48F0 000:329.846 JLINK_SetBPEx(Addr = 0x20001000, Type = 0xFFFFFFF2)
T48F0 000:329.852 - 0.008ms returns 0x00000002
T48F0 000:329.857 JLINK_Go()
T48F0 000:329.868   CPU_ReadMem(4 bytes @ 0xE0001000)
T48F0 000:332.771 - 2.918ms
T48F0 000:332.779 JLINK_IsHalted()
T48F0 000:335.290   CPU_ReadMem(2 bytes @ 0x20001000)
T48F0 000:335.811 - 3.038ms returns TRUE
T48F0 000:335.822 JLINK_ReadReg(R15 (PC))
T48F0 000:335.830 - 0.009ms returns 0x20001000
T48F0 000:335.836 JLINK_ClrBPEx(BPHandle = 0x00000002)
T48F0 000:335.882 - 0.050ms returns 0x00
T48F0 000:335.891 JLINK_ReadReg(R0)
T48F0 000:335.896 - 0.008ms returns 0x00000001
T48F0 000:335.902 JLINK_HasError()
T48F0 000:335.908 JLINK_WriteReg(R0, 0x00800000)
T48F0 000:335.913 - 0.008ms returns 0
T48F0 000:335.919 JLINK_WriteReg(R1, 0x00001000)
T48F0 000:335.924 - 0.007ms returns 0
T48F0 000:335.929 JLINK_WriteReg(R2, 0x000000FF)
T48F0 000:335.934 - 0.007ms returns 0
T48F0 000:335.940 JLINK_WriteReg(R3, 0x00000000)
T48F0 000:335.945 - 0.007ms returns 0
T48F0 000:335.950 JLINK_WriteReg(R4, 0x00000000)
T48F0 000:335.955 - 0.007ms returns 0
T48F0 000:335.961 JLINK_WriteReg(R5, 0x00000000)
T48F0 000:335.966 - 0.007ms returns 0
T48F0 000:335.971 JLINK_WriteReg(R6, 0x00000000)
T48F0 000:335.976 - 0.007ms returns 0
T48F0 000:335.981 JLINK_WriteReg(R7, 0x00000000)
T48F0 000:335.986 - 0.007ms returns 0
T48F0 000:335.992 JLINK_WriteReg(R8, 0x00000000)
T48F0 000:335.997 - 0.007ms returns 0
T48F0 000:336.002 JLINK_WriteReg(R9, 0x200013F8)
T48F0 000:336.007 - 0.007ms returns 0
T48F0 000:336.013 JLINK_WriteReg(R10, 0x00000000)
T48F0 000:336.018 - 0.007ms returns 0
T48F0 000:336.023 JLINK_WriteReg(R11, 0x00000000)
T48F0 000:336.028 - 0.007ms returns 0
T48F0 000:336.034 JLINK_WriteReg(R12, 0x00000000)
T48F0 000:336.039 - 0.007ms returns 0
T48F0 000:336.044 JLINK_WriteReg(R13 (SP), 0x20002000)
T48F0 000:336.049 - 0.007ms returns 0
T48F0 000:336.055 JLINK_WriteReg(R14, 0x20001001)
T48F0 000:336.060 - 0.007ms returns 0
T48F0 000:336.065 JLINK_WriteReg(R15 (PC), 0x200010D8)
T48F0 000:336.070 - 0.007ms returns 0
T48F0 000:336.076 JLINK_WriteReg(XPSR, 0x01000000)
T48F0 000:336.081 - 0.007ms returns 0
T48F0 000:336.086 JLINK_WriteReg(MSP, 0x20002000)
T48F0 000:336.091 - 0.007ms returns 0
T48F0 000:336.097 JLINK_WriteReg(PSP, 0x20002000)
T48F0 000:336.102 - 0.007ms returns 0
T48F0 000:336.107 JLINK_WriteReg(CFBP, 0x00000000)
T48F0 000:336.112 - 0.007ms returns 0
T48F0 000:336.117 JLINK_SetBPEx(Addr = 0x20001000, Type = 0xFFFFFFF2)
T48F0 000:336.123 - 0.008ms returns 0x00000003
T48F0 000:336.128 JLINK_Go()
T48F0 000:336.138   CPU_ReadMem(4 bytes @ 0xE0001000)
T48F0 000:339.180 - 3.058ms
T48F0 000:339.191 JLINK_IsHalted()
T48F0 000:339.777 - 0.592ms returns FALSE
T48F0 000:339.788 JLINK_HasError()
T48F0 000:349.103 JLINK_IsHalted()
T48F0 000:353.074   CPU_ReadMem(2 bytes @ 0x20001000)
T48F0 000:353.944 - 4.861ms returns TRUE
T48F0 000:353.980 JLINK_ReadReg(R15 (PC))
T48F0 000:354.001 - 0.024ms returns 0x20001000
T48F0 000:354.010 JLINK_ClrBPEx(BPHandle = 0x00000003)
T48F0 000:354.019 - 0.012ms returns 0x00
T48F0 000:354.027 JLINK_ReadReg(R0)
T48F0 000:354.034 - 0.010ms returns 0x00000000
T48F0 000:357.757 JLINK_HasError()
T48F0 000:357.774 JLINK_WriteReg(R0, 0x00801000)
T48F0 000:357.800 - 0.028ms returns 0
T48F0 000:357.806 JLINK_WriteReg(R1, 0x00001000)
T48F0 000:357.812 - 0.008ms returns 0
T48F0 000:357.818 JLINK_WriteReg(R2, 0x000000FF)
T48F0 000:357.823 - 0.007ms returns 0
T48F0 000:357.828 JLINK_WriteReg(R3, 0x00000000)
T48F0 000:357.834 - 0.007ms returns 0
T48F0 000:357.839 JLINK_WriteReg(R4, 0x00000000)
T48F0 000:357.844 - 0.007ms returns 0
T48F0 000:357.850 JLINK_WriteReg(R5, 0x00000000)
T48F0 000:357.868 - 0.021ms returns 0
T48F0 000:357.874 JLINK_WriteReg(R6, 0x00000000)
T48F0 000:357.879 - 0.007ms returns 0
T48F0 000:357.884 JLINK_WriteReg(R7, 0x00000000)
T48F0 000:357.889 - 0.007ms returns 0
T48F0 000:357.895 JLINK_WriteReg(R8, 0x00000000)
T48F0 000:357.900 - 0.007ms returns 0
T48F0 000:357.905 JLINK_WriteReg(R9, 0x200013F8)
T48F0 000:357.910 - 0.007ms returns 0
T48F0 000:357.915 JLINK_WriteReg(R10, 0x00000000)
T48F0 000:357.920 - 0.007ms returns 0
T48F0 000:357.926 JLINK_WriteReg(R11, 0x00000000)
T48F0 000:357.931 - 0.007ms returns 0
T48F0 000:357.936 JLINK_WriteReg(R12, 0x00000000)
T48F0 000:357.941 - 0.007ms returns 0
T48F0 000:357.946 JLINK_WriteReg(R13 (SP), 0x20002000)
T48F0 000:357.952 - 0.008ms returns 0
T48F0 000:357.958 JLINK_WriteReg(R14, 0x20001001)
T48F0 000:357.963 - 0.007ms returns 0
T48F0 000:357.973 JLINK_WriteReg(R15 (PC), 0x20001020)
T48F0 000:357.981 - 0.010ms returns 0
T48F0 000:357.986 JLINK_WriteReg(XPSR, 0x01000000)
T48F0 000:357.991 - 0.007ms returns 0
T48F0 000:357.997 JLINK_WriteReg(MSP, 0x20002000)
T48F0 000:358.002 - 0.007ms returns 0
T48F0 000:358.007 JLINK_WriteReg(PSP, 0x20002000)
T48F0 000:358.012 - 0.007ms returns 0
T48F0 000:358.018 JLINK_WriteReg(CFBP, 0x00000000)
T48F0 000:358.023 - 0.007ms returns 0
T48F0 000:358.028 JLINK_SetBPEx(Addr = 0x20001000, Type = 0xFFFFFFF2)
T48F0 000:358.034 - 0.008ms returns 0x00000004
T48F0 000:358.040 JLINK_Go()
T48F0 000:358.054   CPU_ReadMem(4 bytes @ 0xE0001000)
T48F0 000:361.047 - 3.019ms
T48F0 000:361.066 JLINK_IsHalted()
T48F0 000:363.484   CPU_ReadMem(2 bytes @ 0x20001000)
T48F0 000:364.215 - 3.156ms returns TRUE
T48F0 000:364.227 JLINK_ReadReg(R15 (PC))
T48F0 000:364.235 - 0.010ms returns 0x20001000
T48F0 000:364.241 JLINK_ClrBPEx(BPHandle = 0x00000004)
T48F0 000:364.246 - 0.008ms returns 0x00
T48F0 000:364.252 JLINK_ReadReg(R0)
T48F0 000:364.258 - 0.007ms returns 0x00000001
T48F0 000:364.264 JLINK_HasError()
T48F0 000:364.269 JLINK_WriteReg(R0, 0x00801000)
T48F0 000:364.275 - 0.007ms returns 0
T48F0 000:364.280 JLINK_WriteReg(R1, 0x00001000)
T48F0 000:364.286 - 0.007ms returns 0
T48F0 000:364.291 JLINK_WriteReg(R2, 0x000000FF)
T48F0 000:364.296 - 0.007ms returns 0
T48F0 000:364.301 JLINK_WriteReg(R3, 0x00000000)
T48F0 000:364.306 - 0.007ms returns 0
T48F0 000:364.312 JLINK_WriteReg(R4, 0x00000000)
T48F0 000:364.317 - 0.007ms returns 0
T48F0 000:364.322 JLINK_WriteReg(R5, 0x00000000)
T48F0 000:364.328 - 0.007ms returns 0
T48F0 000:364.333 JLINK_WriteReg(R6, 0x00000000)
T48F0 000:364.338 - 0.007ms returns 0
T48F0 000:364.343 JLINK_WriteReg(R7, 0x00000000)
T48F0 000:364.348 - 0.007ms returns 0
T48F0 000:364.354 JLINK_WriteReg(R8, 0x00000000)
T48F0 000:364.359 - 0.007ms returns 0
T48F0 000:364.364 JLINK_WriteReg(R9, 0x200013F8)
T48F0 000:364.369 - 0.007ms returns 0
T48F0 000:364.375 JLINK_WriteReg(R10, 0x00000000)
T48F0 000:364.380 - 0.007ms returns 0
T48F0 000:364.385 JLINK_WriteReg(R11, 0x00000000)
T48F0 000:364.390 - 0.007ms returns 0
T48F0 000:364.396 JLINK_WriteReg(R12, 0x00000000)
T48F0 000:364.401 - 0.007ms returns 0
T48F0 000:364.406 JLINK_WriteReg(R13 (SP), 0x20002000)
T48F0 000:364.411 - 0.007ms returns 0
T48F0 000:364.417 JLINK_WriteReg(R14, 0x20001001)
T48F0 000:364.422 - 0.007ms returns 0
T48F0 000:364.427 JLINK_WriteReg(R15 (PC), 0x200010D8)
T48F0 000:364.432 - 0.007ms returns 0
T48F0 000:364.438 JLINK_WriteReg(XPSR, 0x01000000)
T48F0 000:364.443 - 0.007ms returns 0
T48F0 000:364.448 JLINK_WriteReg(MSP, 0x20002000)
T48F0 000:364.453 - 0.007ms returns 0
T48F0 000:364.459 JLINK_WriteReg(PSP, 0x20002000)
T48F0 000:364.464 - 0.007ms returns 0
T48F0 000:364.469 JLINK_WriteReg(CFBP, 0x00000000)
T48F0 000:364.474 - 0.007ms returns 0
T48F0 000:364.480 JLINK_SetBPEx(Addr = 0x20001000, Type = 0xFFFFFFF2)
T48F0 000:364.486 - 0.008ms returns 0x00000005
T48F0 000:364.491 JLINK_Go()
T48F0 000:364.501   CPU_ReadMem(4 bytes @ 0xE0001000)
T48F0 000:367.812 - 3.327ms
T48F0 000:367.824 JLINK_IsHalted()
T48F0 000:368.428 - 0.611ms returns FALSE
T48F0 000:368.442 JLINK_HasError()
T48F0 000:370.934 JLINK_IsHalted()
T48F0 000:371.509 - 0.582ms returns FALSE
T48F0 000:371.522 JLINK_HasError()
T48F0 000:373.511 JLINK_IsHalted()
T48F0 000:374.231 - 0.726ms returns FALSE
T48F0 000:374.243 JLINK_HasError()
T48F0 000:375.505 JLINK_IsHalted()
T48F0 000:376.053 - 0.554ms returns FALSE
T48F0 000:376.065 JLINK_HasError()
T48F0 000:377.671 JLINK_IsHalted()
T48F0 000:380.432   CPU_ReadMem(2 bytes @ 0x20001000)
T48F0 000:381.153 - 3.489ms returns TRUE
T48F0 000:381.165 JLINK_ReadReg(R15 (PC))
T48F0 000:381.173 - 0.010ms returns 0x20001000
T48F0 000:381.179 JLINK_ClrBPEx(BPHandle = 0x00000005)
T48F0 000:381.185 - 0.008ms returns 0x00
T48F0 000:381.191 JLINK_ReadReg(R0)
T48F0 000:381.196 - 0.007ms returns 0x00000000
T48F0 000:381.552 JLINK_HasError()
T48F0 000:381.562 JLINK_WriteReg(R0, 0x00802000)
T48F0 000:381.575 - 0.015ms returns 0
T48F0 000:381.581 JLINK_WriteReg(R1, 0x00001000)
T48F0 000:381.586 - 0.007ms returns 0
T48F0 000:381.592 JLINK_WriteReg(R2, 0x000000FF)
T48F0 000:381.597 - 0.007ms returns 0
T48F0 000:381.602 JLINK_WriteReg(R3, 0x00000000)
T48F0 000:381.607 - 0.007ms returns 0
T48F0 000:381.613 JLINK_WriteReg(R4, 0x00000000)
T48F0 000:381.618 - 0.007ms returns 0
T48F0 000:381.623 JLINK_WriteReg(R5, 0x00000000)
T48F0 000:381.628 - 0.007ms returns 0
T48F0 000:381.634 JLINK_WriteReg(R6, 0x00000000)
T48F0 000:381.639 - 0.007ms returns 0
T48F0 000:381.644 JLINK_WriteReg(R7, 0x00000000)
T48F0 000:381.649 - 0.007ms returns 0
T48F0 000:381.654 JLINK_WriteReg(R8, 0x00000000)
T48F0 000:381.660 - 0.007ms returns 0
T48F0 000:381.665 JLINK_WriteReg(R9, 0x200013F8)
T48F0 000:381.670 - 0.007ms returns 0
T48F0 000:381.675 JLINK_WriteReg(R10, 0x00000000)
T48F0 000:381.680 - 0.007ms returns 0
T48F0 000:381.686 JLINK_WriteReg(R11, 0x00000000)
T48F0 000:381.691 - 0.007ms returns 0
T48F0 000:381.696 JLINK_WriteReg(R12, 0x00000000)
T48F0 000:381.701 - 0.007ms returns 0
T48F0 000:381.707 JLINK_WriteReg(R13 (SP), 0x20002000)
T48F0 000:381.712 - 0.007ms returns 0
T48F0 000:381.718 JLINK_WriteReg(R14, 0x20001001)
T48F0 000:381.723 - 0.007ms returns 0
T48F0 000:381.728 JLINK_WriteReg(R15 (PC), 0x20001020)
T48F0 000:381.733 - 0.007ms returns 0
T48F0 000:381.739 JLINK_WriteReg(XPSR, 0x01000000)
T48F0 000:381.744 - 0.007ms returns 0
T48F0 000:381.749 JLINK_WriteReg(MSP, 0x20002000)
T48F0 000:381.754 - 0.007ms returns 0
T48F0 000:381.760 JLINK_WriteReg(PSP, 0x20002000)
T48F0 000:381.765 - 0.007ms returns 0
T48F0 000:381.770 JLINK_WriteReg(CFBP, 0x00000000)
T48F0 000:381.775 - 0.007ms returns 0
T48F0 000:381.781 JLINK_SetBPEx(Addr = 0x20001000, Type = 0xFFFFFFF2)
T48F0 000:381.787 - 0.008ms returns 0x00000006
T48F0 000:381.792 JLINK_Go()
T48F0 000:381.803   CPU_ReadMem(4 bytes @ 0xE0001000)
T48F0 000:385.247 - 3.461ms
T48F0 000:385.258 JLINK_IsHalted()
T48F0 000:387.751   CPU_ReadMem(2 bytes @ 0x20001000)
T48F0 000:388.238 - 2.984ms returns TRUE
T48F0 000:388.247 JLINK_ReadReg(R15 (PC))
T48F0 000:388.254 - 0.009ms returns 0x20001000
T48F0 000:388.260 JLINK_ClrBPEx(BPHandle = 0x00000006)
T48F0 000:388.265 - 0.008ms returns 0x00
T48F0 000:388.271 JLINK_ReadReg(R0)
T48F0 000:388.276 - 0.007ms returns 0x00000001
T48F0 000:388.282 JLINK_HasError()
T48F0 000:388.288 JLINK_WriteReg(R0, 0x00802000)
T48F0 000:388.293 - 0.008ms returns 0
T48F0 000:388.299 JLINK_WriteReg(R1, 0x00001000)
T48F0 000:388.304 - 0.007ms returns 0
T48F0 000:388.309 JLINK_WriteReg(R2, 0x000000FF)
T48F0 000:388.315 - 0.007ms returns 0
T48F0 000:388.320 JLINK_WriteReg(R3, 0x00000000)
T48F0 000:388.325 - 0.007ms returns 0
T48F0 000:388.330 JLINK_WriteReg(R4, 0x00000000)
T48F0 000:388.335 - 0.007ms returns 0
T48F0 000:388.341 JLINK_WriteReg(R5, 0x00000000)
T48F0 000:388.346 - 0.007ms returns 0
T48F0 000:388.351 JLINK_WriteReg(R6, 0x00000000)
T48F0 000:388.356 - 0.007ms returns 0
T48F0 000:388.362 JLINK_WriteReg(R7, 0x00000000)
T48F0 000:388.367 - 0.007ms returns 0
T48F0 000:388.372 JLINK_WriteReg(R8, 0x00000000)
T48F0 000:388.377 - 0.007ms returns 0
T48F0 000:388.383 JLINK_WriteReg(R9, 0x200013F8)
T48F0 000:388.388 - 0.007ms returns 0
T48F0 000:388.393 JLINK_WriteReg(R10, 0x00000000)
T48F0 000:388.398 - 0.007ms returns 0
T48F0 000:388.404 JLINK_WriteReg(R11, 0x00000000)
T48F0 000:388.409 - 0.007ms returns 0
T48F0 000:388.414 JLINK_WriteReg(R12, 0x00000000)
T48F0 000:388.419 - 0.007ms returns 0
T48F0 000:388.424 JLINK_WriteReg(R13 (SP), 0x20002000)
T48F0 000:388.430 - 0.007ms returns 0
T48F0 000:388.435 JLINK_WriteReg(R14, 0x20001001)
T48F0 000:388.440 - 0.007ms returns 0
T48F0 000:388.446 JLINK_WriteReg(R15 (PC), 0x200010D8)
T48F0 000:388.451 - 0.007ms returns 0
T48F0 000:388.456 JLINK_WriteReg(XPSR, 0x01000000)
T48F0 000:388.461 - 0.008ms returns 0
T48F0 000:388.468 JLINK_WriteReg(MSP, 0x20002000)
T48F0 000:388.473 - 0.007ms returns 0
T48F0 000:388.478 JLINK_WriteReg(PSP, 0x20002000)
T48F0 000:388.487 - 0.011ms returns 0
T48F0 000:388.492 JLINK_WriteReg(CFBP, 0x00000000)
T48F0 000:388.498 - 0.007ms returns 0
T48F0 000:388.503 JLINK_SetBPEx(Addr = 0x20001000, Type = 0xFFFFFFF2)
T48F0 000:388.509 - 0.008ms returns 0x00000007
T48F0 000:388.514 JLINK_Go()
T48F0 000:388.523   CPU_ReadMem(4 bytes @ 0xE0001000)
T48F0 000:391.206 - 2.698ms
T48F0 000:391.217 JLINK_IsHalted()
T48F0 000:391.723 - 0.511ms returns FALSE
T48F0 000:391.734 JLINK_HasError()
T48F0 000:393.865 JLINK_IsHalted()
T48F0 000:394.590 - 0.731ms returns FALSE
T48F0 000:394.603 JLINK_HasError()
T48F0 000:395.845 JLINK_IsHalted()
T48F0 000:396.625 - 0.786ms returns FALSE
T48F0 000:396.636 JLINK_HasError()
T48F0 000:397.759 JLINK_IsHalted()
T48F0 000:398.480 - 0.728ms returns FALSE
T48F0 000:398.492 JLINK_HasError()
T48F0 000:399.766 JLINK_IsHalted()
T48F0 000:402.411   CPU_ReadMem(2 bytes @ 0x20001000)
T48F0 000:402.986 - 3.227ms returns TRUE
T48F0 000:402.999 JLINK_ReadReg(R15 (PC))
T48F0 000:403.007 - 0.010ms returns 0x20001000
T48F0 000:403.013 JLINK_ClrBPEx(BPHandle = 0x00000007)
T48F0 000:403.019 - 0.008ms returns 0x00
T48F0 000:403.025 JLINK_ReadReg(R0)
T48F0 000:403.031 - 0.008ms returns 0x00000000
T48F0 000:404.714 JLINK_HasError()
T48F0 000:404.727 JLINK_WriteReg(R0, 0x00000001)
T48F0 000:404.735 - 0.010ms returns 0
T48F0 000:404.741 JLINK_WriteReg(R1, 0x00001000)
T48F0 000:404.747 - 0.008ms returns 0
T48F0 000:404.752 JLINK_WriteReg(R2, 0x000000FF)
T48F0 000:404.758 - 0.007ms returns 0
T48F0 000:404.763 JLINK_WriteReg(R3, 0x00000000)
T48F0 000:404.768 - 0.007ms returns 0
T48F0 000:404.774 JLINK_WriteReg(R4, 0x00000000)
T48F0 000:404.779 - 0.007ms returns 0
T48F0 000:404.784 JLINK_WriteReg(R5, 0x00000000)
T48F0 000:404.790 - 0.007ms returns 0
T48F0 000:404.795 JLINK_WriteReg(R6, 0x00000000)
T48F0 000:404.800 - 0.008ms returns 0
T48F0 000:404.807 JLINK_WriteReg(R7, 0x00000000)
T48F0 000:404.812 - 0.008ms returns 0
T48F0 000:404.818 JLINK_WriteReg(R8, 0x00000000)
T48F0 000:404.823 - 0.007ms returns 0
T48F0 000:404.829 JLINK_WriteReg(R9, 0x200013F8)
T48F0 000:404.834 - 0.007ms returns 0
T48F0 000:404.840 JLINK_WriteReg(R10, 0x00000000)
T48F0 000:404.845 - 0.007ms returns 0
T48F0 000:404.850 JLINK_WriteReg(R11, 0x00000000)
T48F0 000:404.855 - 0.007ms returns 0
T48F0 000:404.861 JLINK_WriteReg(R12, 0x00000000)
T48F0 000:404.866 - 0.007ms returns 0
T48F0 000:404.872 JLINK_WriteReg(R13 (SP), 0x20002000)
T48F0 000:404.877 - 0.008ms returns 0
T48F0 000:404.883 JLINK_WriteReg(R14, 0x20001001)
T48F0 000:404.888 - 0.007ms returns 0
T48F0 000:404.893 JLINK_WriteReg(R15 (PC), 0x200010BC)
T48F0 000:404.899 - 0.007ms returns 0
T48F0 000:404.904 JLINK_WriteReg(XPSR, 0x01000000)
T48F0 000:404.909 - 0.007ms returns 0
T48F0 000:404.915 JLINK_WriteReg(MSP, 0x20002000)
T48F0 000:404.920 - 0.007ms returns 0
T48F0 000:404.925 JLINK_WriteReg(PSP, 0x20002000)
T48F0 000:404.931 - 0.008ms returns 0
T48F0 000:404.936 JLINK_WriteReg(CFBP, 0x00000000)
T48F0 000:404.942 - 0.007ms returns 0
T48F0 000:404.947 JLINK_SetBPEx(Addr = 0x20001000, Type = 0xFFFFFFF2)
T48F0 000:404.953 - 0.008ms returns 0x00000008
T48F0 000:404.959 JLINK_Go()
T48F0 000:404.970   CPU_ReadMem(4 bytes @ 0xE0001000)
T48F0 000:407.772 - 2.819ms
T48F0 000:407.784 JLINK_IsHalted()
T48F0 000:410.249   CPU_ReadMem(2 bytes @ 0x20001000)
T48F0 000:410.745 - 2.968ms returns TRUE
T48F0 000:410.757 JLINK_ReadReg(R15 (PC))
T48F0 000:410.766 - 0.011ms returns 0x20001000
T48F0 000:410.773 JLINK_ClrBPEx(BPHandle = 0x00000008)
T48F0 000:410.778 - 0.008ms returns 0x00
T48F0 000:410.784 JLINK_ReadReg(R0)
T48F0 000:410.789 - 0.007ms returns 0x00000000
T48F0 000:467.357 JLINK_WriteMem(0x20001000, 0x458 Bytes, ...)
T48F0 000:467.372   Data:  00 BE 0A E0 0D 78 2D 06 68 40 08 24 40 00 00 D3 ...
T48F0 000:467.391   CPU_WriteMem(1112 bytes @ 0x20001000)
T48F0 000:471.461 - 4.110ms returns 0x458
T48F0 000:471.489 JLINK_HasError()
T48F0 000:471.497 JLINK_WriteReg(R0, 0x00800000)
T48F0 000:471.505 - 0.045ms returns 0
T48F0 000:471.550 JLINK_WriteReg(R1, 0x00B71B00)
T48F0 000:471.556 - 0.008ms returns 0
T48F0 000:471.562 JLINK_WriteReg(R2, 0x00000002)
T48F0 000:471.567 - 0.007ms returns 0
T48F0 000:471.572 JLINK_WriteReg(R3, 0x00000000)
T48F0 000:471.577 - 0.007ms returns 0
T48F0 000:471.583 JLINK_WriteReg(R4, 0x00000000)
T48F0 000:471.588 - 0.007ms returns 0
T48F0 000:471.594 JLINK_WriteReg(R5, 0x00000000)
T48F0 000:471.599 - 0.007ms returns 0
T48F0 000:471.605 JLINK_WriteReg(R6, 0x00000000)
T48F0 000:471.610 - 0.007ms returns 0
T48F0 000:471.615 JLINK_WriteReg(R7, 0x00000000)
T48F0 000:471.620 - 0.007ms returns 0
T48F0 000:471.625 JLINK_WriteReg(R8, 0x00000000)
T48F0 000:471.630 - 0.007ms returns 0
T48F0 000:471.637 JLINK_WriteReg(R9, 0x200013F8)
T48F0 000:471.642 - 0.007ms returns 0
T48F0 000:471.648 JLINK_WriteReg(R10, 0x00000000)
T48F0 000:471.653 - 0.007ms returns 0
T48F0 000:471.659 JLINK_WriteReg(R11, 0x00000000)
T48F0 000:471.664 - 0.007ms returns 0
T48F0 000:471.670 JLINK_WriteReg(R12, 0x00000000)
T48F0 000:471.675 - 0.007ms returns 0
T48F0 000:471.681 JLINK_WriteReg(R13 (SP), 0x20002000)
T48F0 000:471.687 - 0.008ms returns 0
T48F0 000:471.693 JLINK_WriteReg(R14, 0x20001001)
T48F0 000:471.698 - 0.007ms returns 0
T48F0 000:471.704 JLINK_WriteReg(R15 (PC), 0x20001038)
T48F0 000:471.709 - 0.007ms returns 0
T48F0 000:471.769 JLINK_WriteReg(XPSR, 0x01000000)
T48F0 000:471.781 - 0.015ms returns 0
T48F0 000:471.788 JLINK_WriteReg(MSP, 0x20002000)
T48F0 000:471.793 - 0.008ms returns 0
T48F0 000:471.799 JLINK_WriteReg(PSP, 0x20002000)
T48F0 000:471.804 - 0.007ms returns 0
T48F0 000:471.809 JLINK_WriteReg(CFBP, 0x00000000)
T48F0 000:471.814 - 0.007ms returns 0
T48F0 000:471.820 JLINK_SetBPEx(Addr = 0x20001000, Type = 0xFFFFFFF2)
T48F0 000:471.829   CPU_ReadMem(2 bytes @ 0x20001000)
T48F0 000:473.200 - 1.398ms returns 0x00000009
T48F0 000:473.225 JLINK_Go()
T48F0 000:473.236   CPU_WriteMem(2 bytes @ 0x20001000)
T48F0 000:474.601   CPU_ReadMem(4 bytes @ 0xE0001000)
T48F0 000:479.003 - 5.795ms
T48F0 000:479.028 JLINK_IsHalted()
T48F0 000:481.990   CPU_ReadMem(2 bytes @ 0x20001000)
T48F0 000:482.531 - 3.506ms returns TRUE
T48F0 000:482.541 JLINK_ReadReg(R15 (PC))
T48F0 000:482.548 - 0.009ms returns 0x20001000
T48F0 000:482.554 JLINK_ClrBPEx(BPHandle = 0x00000009)
T48F0 000:482.560 - 0.007ms returns 0x00
T48F0 000:482.565 JLINK_ReadReg(R0)
T48F0 000:482.571 - 0.007ms returns 0x00000000
T48F0 000:482.785 JLINK_WriteMem(0x20001458, 0x100 Bytes, ...)
T48F0 000:482.793   Data:  3C 3C A5 A5 C3 C3 5A 5A 20 00 00 00 38 02 00 00 ...
T48F0 000:482.807   CPU_WriteMem(256 bytes @ 0x20001458)
T48F0 000:484.444 - 1.665ms returns 0x100
T48F0 000:484.456 JLINK_HasError()
T48F0 000:484.462 JLINK_WriteReg(R0, 0x00800000)
T48F0 000:484.473 - 0.013ms returns 0
T48F0 000:484.479 JLINK_WriteReg(R1, 0x00000100)
T48F0 000:484.484 - 0.007ms returns 0
T48F0 000:484.489 JLINK_WriteReg(R2, 0x20001458)
T48F0 000:484.494 - 0.007ms returns 0
T48F0 000:484.500 JLINK_WriteReg(R3, 0x00000000)
T48F0 000:484.505 - 0.007ms returns 0
T48F0 000:484.510 JLINK_WriteReg(R4, 0x00000000)
T48F0 000:484.515 - 0.007ms returns 0
T48F0 000:484.521 JLINK_WriteReg(R5, 0x00000000)
T48F0 000:484.526 - 0.007ms returns 0
T48F0 000:484.531 JLINK_WriteReg(R6, 0x00000000)
T48F0 000:484.536 - 0.007ms returns 0
T48F0 000:484.541 JLINK_WriteReg(R7, 0x00000000)
T48F0 000:484.546 - 0.007ms returns 0
T48F0 000:484.552 JLINK_WriteReg(R8, 0x00000000)
T48F0 000:484.557 - 0.007ms returns 0
T48F0 000:484.562 JLINK_WriteReg(R9, 0x200013F8)
T48F0 000:484.567 - 0.007ms returns 0
T48F0 000:484.573 JLINK_WriteReg(R10, 0x00000000)
T48F0 000:484.578 - 0.007ms returns 0
T48F0 000:484.583 JLINK_WriteReg(R11, 0x00000000)
T48F0 000:484.588 - 0.007ms returns 0
T48F0 000:484.594 JLINK_WriteReg(R12, 0x00000000)
T48F0 000:484.599 - 0.007ms returns 0
T48F0 000:484.604 JLINK_WriteReg(R13 (SP), 0x20002000)
T48F0 000:484.609 - 0.007ms returns 0
T48F0 000:484.615 JLINK_WriteReg(R14, 0x20001001)
T48F0 000:484.620 - 0.007ms returns 0
T48F0 000:484.664 JLINK_WriteReg(R15 (PC), 0x200010EC)
T48F0 000:484.672 - 0.010ms returns 0
T48F0 000:484.678 JLINK_WriteReg(XPSR, 0x01000000)
T48F0 000:484.683 - 0.007ms returns 0
T48F0 000:484.688 JLINK_WriteReg(MSP, 0x20002000)
T48F0 000:484.693 - 0.007ms returns 0
T48F0 000:484.699 JLINK_WriteReg(PSP, 0x20002000)
T48F0 000:484.704 - 0.007ms returns 0
T48F0 000:484.709 JLINK_WriteReg(CFBP, 0x00000000)
T48F0 000:484.714 - 0.007ms returns 0
T48F0 000:484.720 JLINK_SetBPEx(Addr = 0x20001000, Type = 0xFFFFFFF2)
T48F0 000:484.726 - 0.008ms returns 0x0000000A
T48F0 000:484.732 JLINK_Go()
T48F0 000:484.742   CPU_ReadMem(4 bytes @ 0xE0001000)
T48F0 000:488.244 - 3.518ms
T48F0 000:488.256 JLINK_IsHalted()
T48F0 000:488.864 - 0.614ms returns FALSE
T48F0 000:488.875 JLINK_HasError()
T48F0 000:497.404 JLINK_IsHalted()
T48F0 000:500.363   CPU_ReadMem(2 bytes @ 0x20001000)
T48F0 000:501.618 - 4.259ms returns TRUE
T48F0 000:501.690 JLINK_ReadReg(R15 (PC))
T48F0 000:501.728 - 0.050ms returns 0x20001000
T48F0 000:501.756 JLINK_ClrBPEx(BPHandle = 0x0000000A)
T48F0 000:501.782 - 0.038ms returns 0x00
T48F0 000:501.809 JLINK_ReadReg(R0)
T48F0 000:501.833 - 0.035ms returns 0x00000000
T48F0 000:503.215 JLINK_WriteMem(0x20001458, 0x100 Bytes, ...)
T48F0 000:503.259   Data:  4F F0 80 43 05 4A 1A 61 00 22 5A 61 4F F0 00 52 ...
T48F0 000:503.316   CPU_WriteMem(256 bytes @ 0x20001458)
T48F0 000:505.647 - 2.478ms returns 0x100
T48F0 000:505.721 JLINK_HasError()
T48F0 000:505.751 JLINK_WriteReg(R0, 0x00800100)
T48F0 000:505.790 - 0.050ms returns 0
T48F0 000:505.817 JLINK_WriteReg(R1, 0x00000100)
T48F0 000:505.842 - 0.037ms returns 0
T48F0 000:505.868 JLINK_WriteReg(R2, 0x20001458)
T48F0 000:505.892 - 0.035ms returns 0
T48F0 000:505.918 JLINK_WriteReg(R3, 0x00000000)
T48F0 000:505.942 - 0.035ms returns 0
T48F0 000:505.967 JLINK_WriteReg(R4, 0x00000000)
T48F0 000:505.991 - 0.035ms returns 0
T48F0 000:506.016 JLINK_WriteReg(R5, 0x00000000)
T48F0 000:506.040 - 0.035ms returns 0
T48F0 000:506.065 JLINK_WriteReg(R6, 0x00000000)
T48F0 000:506.089 - 0.035ms returns 0
T48F0 000:506.114 JLINK_WriteReg(R7, 0x00000000)
T48F0 000:506.138 - 0.034ms returns 0
T48F0 000:506.163 JLINK_WriteReg(R8, 0x00000000)
T48F0 000:506.187 - 0.034ms returns 0
T48F0 000:506.212 JLINK_WriteReg(R9, 0x200013F8)
T48F0 000:506.235 - 0.034ms returns 0
T48F0 000:506.260 JLINK_WriteReg(R10, 0x00000000)
T48F0 000:506.284 - 0.035ms returns 0
T48F0 000:506.310 JLINK_WriteReg(R11, 0x00000000)
T48F0 000:506.333 - 0.034ms returns 0
T48F0 000:506.358 JLINK_WriteReg(R12, 0x00000000)
T48F0 000:506.382 - 0.035ms returns 0
T48F0 000:506.407 JLINK_WriteReg(R13 (SP), 0x20002000)
T48F0 000:506.433 - 0.037ms returns 0
T48F0 000:506.459 JLINK_WriteReg(R14, 0x20001001)
T48F0 000:506.483 - 0.035ms returns 0
T48F0 000:506.508 JLINK_WriteReg(R15 (PC), 0x200010EC)
T48F0 000:506.532 - 0.035ms returns 0
T48F0 000:506.558 JLINK_WriteReg(XPSR, 0x01000000)
T48F0 000:506.581 - 0.035ms returns 0
T48F0 000:506.616 JLINK_WriteReg(MSP, 0x20002000)
T48F0 000:506.641 - 0.035ms returns 0
T48F0 000:506.666 JLINK_WriteReg(PSP, 0x20002000)
T48F0 000:506.690 - 0.035ms returns 0
T48F0 000:506.715 JLINK_WriteReg(CFBP, 0x00000000)
T48F0 000:506.739 - 0.035ms returns 0
T48F0 000:506.765 JLINK_SetBPEx(Addr = 0x20001000, Type = 0xFFFFFFF2)
T48F0 000:506.792 - 0.038ms returns 0x0000000B
T48F0 000:506.819 JLINK_Go()
T48F0 000:506.865   CPU_ReadMem(4 bytes @ 0xE0001000)
T48F0 000:510.993 - 4.216ms
T48F0 000:511.059 JLINK_IsHalted()
T48F0 000:511.875 - 0.849ms returns FALSE
T48F0 000:511.932 JLINK_HasError()
T48F0 000:517.750 JLINK_IsHalted()
T48F0 000:520.211   CPU_ReadMem(2 bytes @ 0x20001000)
T48F0 000:520.748 - 3.005ms returns TRUE
T48F0 000:520.761 JLINK_ReadReg(R15 (PC))
T48F0 000:520.769 - 0.010ms returns 0x20001000
T48F0 000:520.775 JLINK_ClrBPEx(BPHandle = 0x0000000B)
T48F0 000:520.780 - 0.008ms returns 0x00
T48F0 000:520.786 JLINK_ReadReg(R0)
T48F0 000:520.791 - 0.007ms returns 0x00000000
T48F0 000:521.532 JLINK_WriteMem(0x20001458, 0x100 Bytes, ...)
T48F0 000:521.589   Data:  01 4B 18 78 70 47 00 BF 30 01 00 20 01 4B 58 70 ...
T48F0 000:521.606   CPU_WriteMem(256 bytes @ 0x20001458)
T48F0 000:523.173 - 1.647ms returns 0x100
T48F0 000:523.186 JLINK_HasError()
T48F0 000:523.193 JLINK_WriteReg(R0, 0x00800200)
T48F0 000:523.200 - 0.009ms returns 0
T48F0 000:523.206 JLINK_WriteReg(R1, 0x0000005C)
T48F0 000:523.212 - 0.007ms returns 0
T48F0 000:523.271 JLINK_WriteReg(R2, 0x20001458)
T48F0 000:523.283 - 0.015ms returns 0
T48F0 000:523.290 JLINK_WriteReg(R3, 0x00000000)
T48F0 000:523.295 - 0.008ms returns 0
T48F0 000:523.301 JLINK_WriteReg(R4, 0x00000000)
T48F0 000:523.306 - 0.007ms returns 0
T48F0 000:523.311 JLINK_WriteReg(R5, 0x00000000)
T48F0 000:523.316 - 0.007ms returns 0
T48F0 000:523.322 JLINK_WriteReg(R6, 0x00000000)
T48F0 000:523.327 - 0.007ms returns 0
T48F0 000:523.332 JLINK_WriteReg(R7, 0x00000000)
T48F0 000:523.337 - 0.007ms returns 0
T48F0 000:523.343 JLINK_WriteReg(R8, 0x00000000)
T48F0 000:523.348 - 0.007ms returns 0
T48F0 000:523.353 JLINK_WriteReg(R9, 0x200013F8)
T48F0 000:523.358 - 0.007ms returns 0
T48F0 000:523.364 JLINK_WriteReg(R10, 0x00000000)
T48F0 000:523.369 - 0.007ms returns 0
T48F0 000:523.374 JLINK_WriteReg(R11, 0x00000000)
T48F0 000:523.379 - 0.007ms returns 0
T48F0 000:523.385 JLINK_WriteReg(R12, 0x00000000)
T48F0 000:523.390 - 0.007ms returns 0
T48F0 000:523.395 JLINK_WriteReg(R13 (SP), 0x20002000)
T48F0 000:523.401 - 0.007ms returns 0
T48F0 000:523.406 JLINK_WriteReg(R14, 0x20001001)
T48F0 000:523.412 - 0.008ms returns 0
T48F0 000:523.418 JLINK_WriteReg(R15 (PC), 0x200010EC)
T48F0 000:523.423 - 0.007ms returns 0
T48F0 000:523.428 JLINK_WriteReg(XPSR, 0x01000000)
T48F0 000:523.433 - 0.007ms returns 0
T48F0 000:523.439 JLINK_WriteReg(MSP, 0x20002000)
T48F0 000:523.444 - 0.007ms returns 0
T48F0 000:523.449 JLINK_WriteReg(PSP, 0x20002000)
T48F0 000:523.454 - 0.007ms returns 0
T48F0 000:523.460 JLINK_WriteReg(CFBP, 0x00000000)
T48F0 000:523.465 - 0.007ms returns 0
T48F0 000:523.470 JLINK_SetBPEx(Addr = 0x20001000, Type = 0xFFFFFFF2)
T48F0 000:523.476 - 0.008ms returns 0x0000000C
T48F0 000:523.482 JLINK_Go()
T48F0 000:523.492   CPU_ReadMem(4 bytes @ 0xE0001000)
T48F0 000:526.744 - 3.270ms
T48F0 000:526.757 JLINK_IsHalted()
T48F0 000:527.419 - 0.668ms returns FALSE
T48F0 000:527.431 JLINK_HasError()
T48F0 000:529.480 JLINK_IsHalted()
T48F0 000:531.844   CPU_ReadMem(2 bytes @ 0x20001000)
T48F0 000:532.310 - 2.837ms returns TRUE
T48F0 000:532.322 JLINK_ReadReg(R15 (PC))
T48F0 000:532.330 - 0.010ms returns 0x20001000
T48F0 000:532.335 JLINK_ClrBPEx(BPHandle = 0x0000000C)
T48F0 000:532.341 - 0.008ms returns 0x00
T48F0 000:532.347 JLINK_ReadReg(R0)
T48F0 000:532.352 - 0.007ms returns 0x00000000
T48F0 000:532.550 JLINK_WriteMem(0x20001458, 0x100 Bytes, ...)
T48F0 000:532.558   Data:  B8 0B 00 20 35 05 80 00 3F 05 80 00 3D 05 80 00 ...
T48F0 000:532.570   CPU_WriteMem(256 bytes @ 0x20001458)
T48F0 000:534.094 - 1.550ms returns 0x100
T48F0 000:534.106 JLINK_HasError()
T48F0 000:534.112 JLINK_WriteReg(R0, 0x00800300)
T48F0 000:534.120 - 0.010ms returns 0
T48F0 000:534.126 JLINK_WriteReg(R1, 0x00000100)
T48F0 000:534.131 - 0.007ms returns 0
T48F0 000:534.136 JLINK_WriteReg(R2, 0x20001458)
T48F0 000:534.142 - 0.007ms returns 0
T48F0 000:534.147 JLINK_WriteReg(R3, 0x00000000)
T48F0 000:534.152 - 0.007ms returns 0
T48F0 000:534.157 JLINK_WriteReg(R4, 0x00000000)
T48F0 000:534.162 - 0.007ms returns 0
T48F0 000:534.168 JLINK_WriteReg(R5, 0x00000000)
T48F0 000:534.173 - 0.007ms returns 0
T48F0 000:534.178 JLINK_WriteReg(R6, 0x00000000)
T48F0 000:534.183 - 0.007ms returns 0
T48F0 000:534.189 JLINK_WriteReg(R7, 0x00000000)
T48F0 000:534.194 - 0.007ms returns 0
T48F0 000:534.199 JLINK_WriteReg(R8, 0x00000000)
T48F0 000:534.204 - 0.007ms returns 0
T48F0 000:534.210 JLINK_WriteReg(R9, 0x200013F8)
T48F0 000:534.215 - 0.007ms returns 0
T48F0 000:534.220 JLINK_WriteReg(R10, 0x00000000)
T48F0 000:534.225 - 0.007ms returns 0
T48F0 000:534.231 JLINK_WriteReg(R11, 0x00000000)
T48F0 000:534.240 - 0.013ms returns 0
T48F0 000:534.247 JLINK_WriteReg(R12, 0x00000000)
T48F0 000:534.253 - 0.007ms returns 0
T48F0 000:534.258 JLINK_WriteReg(R13 (SP), 0x20002000)
T48F0 000:534.263 - 0.007ms returns 0
T48F0 000:534.269 JLINK_WriteReg(R14, 0x20001001)
T48F0 000:534.274 - 0.007ms returns 0
T48F0 000:534.279 JLINK_WriteReg(R15 (PC), 0x200010EC)
T48F0 000:534.284 - 0.007ms returns 0
T48F0 000:534.290 JLINK_WriteReg(XPSR, 0x01000000)
T48F0 000:534.295 - 0.007ms returns 0
T48F0 000:534.300 JLINK_WriteReg(MSP, 0x20002000)
T48F0 000:534.305 - 0.007ms returns 0
T48F0 000:534.311 JLINK_WriteReg(PSP, 0x20002000)
T48F0 000:534.316 - 0.007ms returns 0
T48F0 000:534.321 JLINK_WriteReg(CFBP, 0x00000000)
T48F0 000:534.326 - 0.008ms returns 0
T48F0 000:534.333 JLINK_SetBPEx(Addr = 0x20001000, Type = 0xFFFFFFF2)
T48F0 000:534.339 - 0.008ms returns 0x0000000D
T48F0 000:534.345 JLINK_Go()
T48F0 000:534.354   CPU_ReadMem(4 bytes @ 0xE0001000)
T48F0 000:539.554 - 5.228ms
T48F0 000:539.580 JLINK_IsHalted()
T48F0 000:540.577 - 1.014ms returns FALSE
T48F0 000:540.602 JLINK_HasError()
T48F0 000:541.815 JLINK_IsHalted()
T48F0 000:544.754   CPU_ReadMem(2 bytes @ 0x20001000)
T48F0 000:545.357 - 3.549ms returns TRUE
T48F0 000:545.371 JLINK_ReadReg(R15 (PC))
T48F0 000:545.379 - 0.011ms returns 0x20001000
T48F0 000:545.385 JLINK_ClrBPEx(BPHandle = 0x0000000D)
T48F0 000:545.391 - 0.008ms returns 0x00
T48F0 000:545.396 JLINK_ReadReg(R0)
T48F0 000:545.402 - 0.007ms returns 0x00000000
T48F0 000:546.511 JLINK_WriteMem(0x20001458, 0x100 Bytes, ...)
T48F0 000:546.523   Data:  00 F0 3A F8 00 F0 0E F8 FF BC 80 46 89 46 92 46 ...
T48F0 000:546.538   CPU_WriteMem(256 bytes @ 0x20001458)
T48F0 000:547.896 - 1.391ms returns 0x100
T48F0 000:547.909 JLINK_HasError()
T48F0 000:547.916 JLINK_WriteReg(R0, 0x00800400)
T48F0 000:547.925 - 0.011ms returns 0
T48F0 000:547.931 JLINK_WriteReg(R1, 0x00000100)
T48F0 000:547.937 - 0.008ms returns 0
T48F0 000:547.943 JLINK_WriteReg(R2, 0x20001458)
T48F0 000:547.948 - 0.007ms returns 0
T48F0 000:547.953 JLINK_WriteReg(R3, 0x00000000)
T48F0 000:547.959 - 0.007ms returns 0
T48F0 000:547.964 JLINK_WriteReg(R4, 0x00000000)
T48F0 000:547.969 - 0.007ms returns 0
T48F0 000:547.975 JLINK_WriteReg(R5, 0x00000000)
T48F0 000:547.980 - 0.007ms returns 0
T48F0 000:547.986 JLINK_WriteReg(R6, 0x00000000)
T48F0 000:547.991 - 0.007ms returns 0
T48F0 000:547.996 JLINK_WriteReg(R7, 0x00000000)
T48F0 000:548.002 - 0.007ms returns 0
T48F0 000:548.007 JLINK_WriteReg(R8, 0x00000000)
T48F0 000:548.012 - 0.007ms returns 0
T48F0 000:548.018 JLINK_WriteReg(R9, 0x200013F8)
T48F0 000:548.023 - 0.007ms returns 0
T48F0 000:548.029 JLINK_WriteReg(R10, 0x00000000)
T48F0 000:548.034 - 0.007ms returns 0
T48F0 000:548.040 JLINK_WriteReg(R11, 0x00000000)
T48F0 000:548.045 - 0.007ms returns 0
T48F0 000:548.051 JLINK_WriteReg(R12, 0x00000000)
T48F0 000:548.056 - 0.007ms returns 0
T48F0 000:548.061 JLINK_WriteReg(R13 (SP), 0x20002000)
T48F0 000:548.067 - 0.008ms returns 0
T48F0 000:548.073 JLINK_WriteReg(R14, 0x20001001)
T48F0 000:548.078 - 0.007ms returns 0
T48F0 000:548.084 JLINK_WriteReg(R15 (PC), 0x200010EC)
T48F0 000:548.090 - 0.008ms returns 0
T48F0 000:548.096 JLINK_WriteReg(XPSR, 0x01000000)
T48F0 000:548.102 - 0.008ms returns 0
T48F0 000:548.107 JLINK_WriteReg(MSP, 0x20002000)
T48F0 000:548.113 - 0.007ms returns 0
T48F0 000:548.118 JLINK_WriteReg(PSP, 0x20002000)
T48F0 000:548.123 - 0.007ms returns 0
T48F0 000:548.129 JLINK_WriteReg(CFBP, 0x00000000)
T48F0 000:548.135 - 0.009ms returns 0
T48F0 000:548.144 JLINK_SetBPEx(Addr = 0x20001000, Type = 0xFFFFFFF2)
T48F0 000:548.150 - 0.009ms returns 0x0000000E
T48F0 000:548.158 JLINK_Go()
T48F0 000:548.170   CPU_ReadMem(4 bytes @ 0xE0001000)
T48F0 000:550.859 - 2.705ms
T48F0 000:550.869 JLINK_IsHalted()
T48F0 000:551.329 - 0.464ms returns FALSE
T48F0 000:551.338 JLINK_HasError()
T48F0 000:554.481 JLINK_IsHalted()
T48F0 000:557.054   CPU_ReadMem(2 bytes @ 0x20001000)
T48F0 000:557.639 - 3.165ms returns TRUE
T48F0 000:557.655 JLINK_ReadReg(R15 (PC))
T48F0 000:557.665 - 0.011ms returns 0x20001000
T48F0 000:557.670 JLINK_ClrBPEx(BPHandle = 0x0000000E)
T48F0 000:557.676 - 0.008ms returns 0x00
T48F0 000:557.682 JLINK_ReadReg(R0)
T48F0 000:557.687 - 0.007ms returns 0x00000000
T48F0 000:557.968 JLINK_WriteMem(0x20001458, 0x100 Bytes, ...)
T48F0 000:557.977   Data:  00 00 00 00 00 00 00 00 00 00 00 00 00 00 00 00 ...
T48F0 000:557.988   CPU_WriteMem(256 bytes @ 0x20001458)
T48F0 000:559.510 - 1.551ms returns 0x100
T48F0 000:559.526 JLINK_HasError()
T48F0 000:559.532 JLINK_WriteReg(R0, 0x00800500)
T48F0 000:559.541 - 0.010ms returns 0
T48F0 000:559.546 JLINK_WriteReg(R1, 0x00000100)
T48F0 000:559.552 - 0.007ms returns 0
T48F0 000:559.557 JLINK_WriteReg(R2, 0x20001458)
T48F0 000:559.562 - 0.007ms returns 0
